
**** 06/01/20 15:50:22 ***** PSpice 16.6.0 (October 2012) ***** ID# 0 ********

 ** Profile: "SCHEMATIC1-1"  [ C:\Users\art_home\university\schem\sem6\dana\amp-PSpiceFiles\SCHEMATIC1\1.sim ] 


 ****     CIRCUIT DESCRIPTION


******************************************************************************




** Creating circuit file "1.cir" 
** WARNING: THIS AUTOMATICALLY GENERATED FILE MAY BE OVERWRITTEN BY SUBSEQUENT SIMULATIONS

*Libraries: 
* Profile Libraries :
* Local Libraries :
* From [PSPICE NETLIST] section of C:\Users\art_home\AppData\Roaming\SPB_Data\cdssetup\OrCAD_PSpice/16.6.0/PSpice.ini file:
.lib "nom.lib" 

*Analysis directives: 
.TRAN  0 1000ns 0 10ns 
.STEP LIN V_V2 0vdc 17m 1m 
.OPTIONS ADVCONV
.PROBE64 V(alias(*)) I(alias(*)) W(alias(*)) D(alias(*)) NOISE(alias(*)) 
.INC "..\SCHEMATIC1.net" 



**** INCLUDING SCHEMATIC1.net ****
* source AMP
X_U1         N00225 N00194 +3.3 0 N00185 lmv321/NS
V_V1         +3.3 0 3.3vdc
R_R1         0 N00194  1k TC=0,0 
V_V2         N00225 0 0.01Vdc
X_R2         N00194 N00185 N00185 POT PARAMS: SET={RPOT} VALUE=100K
.PARAM  rpot=0.5

**** RESUMING 1.cir ****
.END

**** 06/01/20 15:50:22 ***** PSpice 16.6.0 (October 2012) ***** ID# 0 ********

 ** Profile: "SCHEMATIC1-1"  [ C:\Users\art_home\university\schem\sem6\dana\amp-PSpiceFiles\SCHEMATIC1\1.sim ] 


 ****     Diode MODEL PARAMETERS


******************************************************************************




               X_U1.DMOD1      X_U1.DMOD2      
          IS   10.000000E-15   10.000000E-18 


**** 06/01/20 15:50:22 ***** PSpice 16.6.0 (October 2012) ***** ID# 0 ********

 ** Profile: "SCHEMATIC1-1"  [ C:\Users\art_home\university\schem\sem6\dana\amp-PSpiceFiles\SCHEMATIC1\1.sim ] 


 ****     BJT MODEL PARAMETERS


******************************************************************************




               X_U1.NPN1       X_U1.PNP1       
               NPN             PNP             
       LEVEL    1               1            
          IS    1.000000E-15    1.000000E-15 
          BF  100             100            
          NF    1               1            
          BR    1               1            
          NR    1               1            
         ISS    0               0            
          RE    0               0            
          RC    0               0            
         CJE    0               0            
         VJE     .75             .75         
         CJC    0               0            
         VJC     .75             .75         
         MJC     .33             .33         
        XCJC    1               1            
         CJS    0               0            
         VJS     .75             .75         
          KF    0               0            
          AF    1               1            
          CN    2.42            2.2          
           D     .87             .52         


**** 06/01/20 15:50:22 ***** PSpice 16.6.0 (October 2012) ***** ID# 0 ********

 ** Profile: "SCHEMATIC1-1"  [ C:\Users\art_home\university\schem\sem6\dana\amp-PSpiceFiles\SCHEMATIC1\1.sim ] 


 ****     Resistor MODEL PARAMETERS


******************************************************************************




               X_U1.MRAX       X_U1.MRIB       X_U1.MRISC      
           R    1               1               1            
         TC1   10.000000E-06    2.837130E-03   -3.000000E-03 


**** 06/01/20 15:50:22 ***** PSpice 16.6.0 (October 2012) ***** ID# 0 ********

 ** Profile: "SCHEMATIC1-1"  [ C:\Users\art_home\university\schem\sem6\dana\amp-PSpiceFiles\SCHEMATIC1\1.sim ] 


 ****     INITIAL TRANSIENT SOLUTION       TEMPERATURE =   27.000 DEG C

 ****     CURRENT STEP                     V_V2 =    0     


******************************************************************************



 NODE   VOLTAGE     NODE   VOLTAGE     NODE   VOLTAGE     NODE   VOLTAGE


( +3.3)    3.3000  (N00185)     .3106 (N00194)     .0061 (N00225)    0.0000     

(X_U1.10)    1.6500                   (X_U1.11)     .0442                       

(X_U1.17)    1.6500                   (X_U1.18)     .0061                       

(X_U1.19)-17.67E-06                   (X_U1.21)     .4000                       

(X_U1.22)    3.7000                   (X_U1.23)    3.7000                       

(X_U1.24)    3.3051                   (X_U1.25)    2.6500                       

(X_U1.26)    2.6500                   (X_U1.27)    2.4838                       

(X_U1.28)    2.1969                   (X_U1.29)    1.6500                       

(X_U1.31)    5.6500                   (X_U1.32)    4.6500                       

(X_U1.33)    3.6500                   (X_U1.34)    2.6500                       

(X_U1.38)     .0442                   (X_U1.39)     .0442                       

(X_U1.40)    3.3000                   (X_U1.41)     .0723                       

(X_U1.42)    3.3000                   (X_U1.43)    1.6500                       

(X_U1.44)    1.6500                   (X_U1.45)    1.6500                       

(X_U1.50)    0.0000                   (X_U1.51)  100.9500                       

(X_U1.52)  -97.6500                   (X_U1.57)    1.6407                       

(X_U1.58)    1.6500                   (X_U1.59)     .3749                       

(X_U1.71)     .3739                   (X_U1.72)    -.4479                       

(X_U1.73)    1.0692                   (X_U1.74)    3.3000                       

(X_U1.75)     .0100                   (X_U1.76)    3.3000                       

(X_U1.77)    0.0000                   (X_U1.78)     .3152                       

(X_U1.79)     .3060                   (X_U1.81)     .3106                       

(X_U1.86)     .3106                   (X_U1.91)    1.6500                       

(X_U1.92)    1.6500                   (X_U1.93)    2.1732                       

(X_U1.94)     .0442                   (X_U1.95)     .2000                       

(X_U1.96)     .0442                   (X_U1.97)    2.5000                       

(X_U1.98)     .0442                   (X_U1.99)     .0442                       

(X_U1.120)    3.6500                  (X_U1.121)    2.6500                      

(X_U1.122)    2.6570                  (X_U1.710)     .4294                      

(X_U1.720)    -.2926                  




    VOLTAGE SOURCE CURRENTS
    NAME         CURRENT

    V_V1        -1.361E-04
    V_V2        -1.767E-08
    X_U1.VOFF   -4.049E-13
    X_U1.VSENS1   1.000E-03
    X_U1.VTEMP   1.522E-08
    X_U1.VCMX   -1.578E-06
    X_U1.VPSX    0.000E+00
    X_U1.VCXX    6.743E-12
    X_U1.VOOP    4.573E-03
    X_U1.VOON    4.567E-03
    X_U1.VOX     6.089E-06
    X_U1.VFX1    6.089E-06
    X_U1.VFX2   -5.332E-13

    TOTAL POWER DISSIPATION   4.49E-04  WATTS


**** 06/01/20 15:50:22 ***** PSpice 16.6.0 (October 2012) ***** ID# 0 ********

 ** Profile: "SCHEMATIC1-1"  [ C:\Users\art_home\university\schem\sem6\dana\amp-PSpiceFiles\SCHEMATIC1\1.sim ] 


 ****     INITIAL TRANSIENT SOLUTION       TEMPERATURE =   27.000 DEG C

 ****     CURRENT STEP                     V_V2 =    1.0000E-03


******************************************************************************



 NODE   VOLTAGE     NODE   VOLTAGE     NODE   VOLTAGE     NODE   VOLTAGE


( +3.3)    3.3000  (N00185)     .3616 (N00194)     .0071 (N00225)     .0010     

(X_U1.10)    1.6500                   (X_U1.11)     .0452                       

(X_U1.17)    1.6500                   (X_U1.18)     .0071                       

(X_U1.19) 982.3E-06                   (X_U1.21)     .4000                       

(X_U1.22)    3.7000                   (X_U1.23)    3.7000                       

(X_U1.24)    3.3051                   (X_U1.25)    2.6500                       

(X_U1.26)    2.6500                   (X_U1.27)    2.4838                       

(X_U1.28)    2.1969                   (X_U1.29)    1.6500                       

(X_U1.31)    5.6500                   (X_U1.32)    4.6500                       

(X_U1.33)    3.6500                   (X_U1.34)    2.6500                       

(X_U1.38)     .0452                   (X_U1.39)     .0452                       

(X_U1.40)    3.3000                   (X_U1.41)     .0732                       

(X_U1.42)    3.3000                   (X_U1.43)    1.6500                       

(X_U1.44)    1.6500                   (X_U1.45)    1.6500                       

(X_U1.50)    0.0000                   (X_U1.51)  100.9500                       

(X_U1.52)  -97.6500                   (X_U1.57)    1.6411                       

(X_U1.58)    1.6500                   (X_U1.59)     .4260                       

(X_U1.71)     .4250                   (X_U1.72)    -.3970                       

(X_U1.73)    1.1202                   (X_U1.74)    3.3000                       

(X_U1.75)     .0100                   (X_U1.76)    3.3000                       

(X_U1.77)    0.0000                   (X_U1.78)     .3662                       

(X_U1.79)     .3570                   (X_U1.81)     .3616                       

(X_U1.86)     .3616                   (X_U1.91)    1.6500                       

(X_U1.92)    1.6500                   (X_U1.93)    2.1771                       

(X_U1.94)     .0452                   (X_U1.95)     .2000                       

(X_U1.96)     .0452                   (X_U1.97)    2.5000                       

(X_U1.98)     .0452                   (X_U1.99)     .0452                       

(X_U1.120)    3.6500                  (X_U1.121)    2.6500                      

(X_U1.122)    2.6570                  (X_U1.710)     .4804                      

(X_U1.720)    -.2415                  




    VOLTAGE SOURCE CURRENTS
    NAME         CURRENT

    V_V1        -1.371E-04
    V_V2        -1.767E-08
    X_U1.VOFF   -4.049E-13
    X_U1.VSENS1   1.000E-03
    X_U1.VTEMP   1.522E-08
    X_U1.VCMX   -1.577E-06
    X_U1.VPSX    0.000E+00
    X_U1.VCXX    6.588E-12
    X_U1.VOOP    4.577E-03
    X_U1.VOON    4.570E-03
    X_U1.VOX     7.089E-06
    X_U1.VFX1    7.089E-06
    X_U1.VFX2   -5.371E-13

    TOTAL POWER DISSIPATION   4.52E-04  WATTS


**** 06/01/20 15:50:22 ***** PSpice 16.6.0 (October 2012) ***** ID# 0 ********

 ** Profile: "SCHEMATIC1-1"  [ C:\Users\art_home\university\schem\sem6\dana\amp-PSpiceFiles\SCHEMATIC1\1.sim ] 


 ****     INITIAL TRANSIENT SOLUTION       TEMPERATURE =   27.000 DEG C

 ****     CURRENT STEP                     V_V2 =    2.0000E-03


******************************************************************************



 NODE   VOLTAGE     NODE   VOLTAGE     NODE   VOLTAGE     NODE   VOLTAGE


( +3.3)    3.3000  (N00185)     .4126 (N00194)     .0081 (N00225)     .0020     

(X_U1.10)    1.6500                   (X_U1.11)     .0461                       

(X_U1.17)    1.6500                   (X_U1.18)     .0081                       

(X_U1.19)     .0020                   (X_U1.21)     .4000                       

(X_U1.22)    3.7000                   (X_U1.23)    3.7000                       

(X_U1.24)    3.3051                   (X_U1.25)    2.6500                       

(X_U1.26)    2.6500                   (X_U1.27)    2.4838                       

(X_U1.28)    2.1969                   (X_U1.29)    1.6500                       

(X_U1.31)    5.6500                   (X_U1.32)    4.6500                       

(X_U1.33)    3.6500                   (X_U1.34)    2.6500                       

(X_U1.38)     .0461                   (X_U1.39)     .0461                       

(X_U1.40)    3.3000                   (X_U1.41)     .0742                       

(X_U1.42)    3.3000                   (X_U1.43)    1.6500                       

(X_U1.44)    1.6500                   (X_U1.45)    1.6500                       

(X_U1.50)    0.0000                   (X_U1.51)  100.9500                       

(X_U1.52)  -97.6500                   (X_U1.57)    1.6415                       

(X_U1.58)    1.6500                   (X_U1.59)     .4770                       

(X_U1.71)     .4760                   (X_U1.72)    -.3459                       

(X_U1.73)    1.1712                   (X_U1.74)    3.3000                       

(X_U1.75)     .0100                   (X_U1.76)    3.3000                       

(X_U1.77)    0.0000                   (X_U1.78)     .4172                       

(X_U1.79)     .4080                   (X_U1.81)     .4126                       

(X_U1.86)     .4126                   (X_U1.91)    1.6500                       

(X_U1.92)    1.6500                   (X_U1.93)    2.1805                       

(X_U1.94)     .0461                   (X_U1.95)     .2000                       

(X_U1.96)     .0461                   (X_U1.97)    2.5000                       

(X_U1.98)     .0461                   (X_U1.99)     .0461                       

(X_U1.120)    3.6500                  (X_U1.121)    2.6500                      

(X_U1.122)    2.6570                  (X_U1.710)     .5314                      

(X_U1.720)    -.1905                  




    VOLTAGE SOURCE CURRENTS
    NAME         CURRENT

    V_V1        -1.381E-04
    V_V2        -1.767E-08
    X_U1.VOFF   -4.049E-13
    X_U1.VSENS1   1.000E-03
    X_U1.VTEMP   1.522E-08
    X_U1.VCMX   -1.576E-06
    X_U1.VPSX    0.000E+00
    X_U1.VCXX    6.439E-12
    X_U1.VOOP    4.578E-03
    X_U1.VOON    4.570E-03
    X_U1.VOX     8.090E-06
    X_U1.VFX1    8.090E-06
    X_U1.VFX2   -5.405E-13

    TOTAL POWER DISSIPATION   4.56E-04  WATTS


**** 06/01/20 15:50:22 ***** PSpice 16.6.0 (October 2012) ***** ID# 0 ********

 ** Profile: "SCHEMATIC1-1"  [ C:\Users\art_home\university\schem\sem6\dana\amp-PSpiceFiles\SCHEMATIC1\1.sim ] 


 ****     INITIAL TRANSIENT SOLUTION       TEMPERATURE =   27.000 DEG C

 ****     CURRENT STEP                     V_V2 =    3.0000E-03


******************************************************************************



 NODE   VOLTAGE     NODE   VOLTAGE     NODE   VOLTAGE     NODE   VOLTAGE


( +3.3)    3.3000  (N00185)     .4636 (N00194)     .0091 (N00225)     .0030     

(X_U1.10)    1.6500                   (X_U1.11)     .0471                       

(X_U1.17)    1.6500                   (X_U1.18)     .0091                       

(X_U1.19)     .0030                   (X_U1.21)     .4000                       

(X_U1.22)    3.7000                   (X_U1.23)    3.7000                       

(X_U1.24)    3.3051                   (X_U1.25)    2.6500                       

(X_U1.26)    2.6500                   (X_U1.27)    2.4838                       

(X_U1.28)    2.1969                   (X_U1.29)    1.6500                       

(X_U1.31)    5.6500                   (X_U1.32)    4.6500                       

(X_U1.33)    3.6500                   (X_U1.34)    2.6500                       

(X_U1.38)     .0471                   (X_U1.39)     .0471                       

(X_U1.40)    3.3000                   (X_U1.41)     .0751                       

(X_U1.42)    3.3000                   (X_U1.43)    1.6500                       

(X_U1.44)    1.6500                   (X_U1.45)    1.6500                       

(X_U1.50)    0.0000                   (X_U1.51)  100.9500                       

(X_U1.52)  -97.6500                   (X_U1.57)    1.6419                       

(X_U1.58)    1.6500                   (X_U1.59)     .5280                       

(X_U1.71)     .5270                   (X_U1.72)    -.2949                       

(X_U1.73)    1.2223                   (X_U1.74)    3.3000                       

(X_U1.75)     .0100                   (X_U1.76)    3.3000                       

(X_U1.77)    0.0000                   (X_U1.78)     .4683                       

(X_U1.79)     .4590                   (X_U1.81)     .4636                       

(X_U1.86)     .4636                   (X_U1.91)    1.6500                       

(X_U1.92)    1.6500                   (X_U1.93)    2.1835                       

(X_U1.94)     .0471                   (X_U1.95)     .2000                       

(X_U1.96)     .0471                   (X_U1.97)    2.5000                       

(X_U1.98)     .0471                   (X_U1.99)     .0471                       

(X_U1.120)    3.6500                  (X_U1.121)    2.6500                      

(X_U1.122)    2.6570                  (X_U1.710)     .5824                      

(X_U1.720)    -.1395                  




    VOLTAGE SOURCE CURRENTS
    NAME         CURRENT

    V_V1        -1.391E-04
    V_V2        -1.767E-08
    X_U1.VOFF   -4.049E-13
    X_U1.VSENS1   1.000E-03
    X_U1.VTEMP   1.522E-08
    X_U1.VCMX   -1.575E-06
    X_U1.VPSX    0.000E+00
    X_U1.VCXX    6.296E-12
    X_U1.VOOP    4.579E-03
    X_U1.VOON    4.570E-03
    X_U1.VOX     9.090E-06
    X_U1.VFX1    9.090E-06
    X_U1.VFX2   -5.435E-13

    TOTAL POWER DISSIPATION   4.59E-04  WATTS


**** 06/01/20 15:50:22 ***** PSpice 16.6.0 (October 2012) ***** ID# 0 ********

 ** Profile: "SCHEMATIC1-1"  [ C:\Users\art_home\university\schem\sem6\dana\amp-PSpiceFiles\SCHEMATIC1\1.sim ] 


 ****     INITIAL TRANSIENT SOLUTION       TEMPERATURE =   27.000 DEG C

 ****     CURRENT STEP                     V_V2 =    4.0000E-03


******************************************************************************



 NODE   VOLTAGE     NODE   VOLTAGE     NODE   VOLTAGE     NODE   VOLTAGE


( +3.3)    3.3000  (N00185)     .5146 (N00194)     .0101 (N00225)     .0040     

(X_U1.10)    1.6500                   (X_U1.11)     .0481                       

(X_U1.17)    1.6500                   (X_U1.18)     .0101                       

(X_U1.19)     .0040                   (X_U1.21)     .4000                       

(X_U1.22)    3.7000                   (X_U1.23)    3.7000                       

(X_U1.24)    3.3051                   (X_U1.25)    2.6500                       

(X_U1.26)    2.6500                   (X_U1.27)    2.4838                       

(X_U1.28)    2.1969                   (X_U1.29)    1.6500                       

(X_U1.31)    5.6500                   (X_U1.32)    4.6500                       

(X_U1.33)    3.6500                   (X_U1.34)    2.6500                       

(X_U1.38)     .0481                   (X_U1.39)     .0481                       

(X_U1.40)    3.3000                   (X_U1.41)     .0761                       

(X_U1.42)    3.3000                   (X_U1.43)    1.6500                       

(X_U1.44)    1.6500                   (X_U1.45)    1.6500                       

(X_U1.50)    0.0000                   (X_U1.51)  100.9500                       

(X_U1.52)  -97.6500                   (X_U1.57)    1.6422                       

(X_U1.58)    1.6500                   (X_U1.59)     .5790                       

(X_U1.71)     .5780                   (X_U1.72)    -.2439                       

(X_U1.73)    1.2733                   (X_U1.74)    3.3000                       

(X_U1.75)     .0100                   (X_U1.76)    3.3000                       

(X_U1.77)    0.0000                   (X_U1.78)     .5193                       

(X_U1.79)     .5100                   (X_U1.81)     .5146                       

(X_U1.86)     .5146                   (X_U1.91)    1.6500                       

(X_U1.92)    1.6500                   (X_U1.93)    2.1862                       

(X_U1.94)     .0481                   (X_U1.95)     .2000                       

(X_U1.96)     .0481                   (X_U1.97)    2.5000                       

(X_U1.98)     .0481                   (X_U1.99)     .0481                       

(X_U1.120)    3.6500                  (X_U1.121)    2.6500                      

(X_U1.122)    2.6570                  (X_U1.710)     .6334                      

(X_U1.720)    -.0885                  




    VOLTAGE SOURCE CURRENTS
    NAME         CURRENT

    V_V1        -1.401E-04
    V_V2        -1.767E-08
    X_U1.VOFF   -4.049E-13
    X_U1.VSENS1   1.000E-03
    X_U1.VTEMP   1.522E-08
